T0EC8 4236:053 SEGGER J-Link V4.98e Log File (0001ms, 95208ms total)
T0EC8 4236:053 DLL Compiled: May  5 2015 11:00:52 (0001ms, 95208ms total)
T0EC8 4236:053 Logging started @ 2016-05-25 17:24 (0001ms, 95208ms total)
T0EC8 4236:080 JLINK_ExecCommand("Device = AT91SAM4SD32C", ...)Device "ATSAM4SD32C" selected.  returns 0x00 (0001ms, 95209ms total)
T0EC8 4236:447 JLINK_ExecCommand("ProjectFile = C:\Users\Lucas\Documents\GitHub\Entregas\15-DAC\DACC_SINEWAVE_EXAMPLE1\jlink.config", ...)  returns 0x00 (0000ms, 95209ms total)
T0EC8 4236:475 JLINK_ExecCommand("Device = AT91SAM4SD32C", ...)Device "ATSAM4SD32C" selected.  returns 0x00 (0001ms, 95210ms total)
T0EC8 4236:476 JLINK_TIF_Select(JLINKARM_TIF_JTAG)  returns 0x00 (0004ms, 95214ms total)
T0EC8 4236:480 JLINK_GetIdData(...) >0x2F8 JTAG>TotalIRLen = 4, IRPrint = 0x01 >0x30 JTAG> >0x210 JTAG> >0x70 JTAG> >0x40 JTAG> >0x40 JTAG> >0x40 JTAG> >0x48 JTAG> >0x78 JTAG> >0x40 JTAG> >0x30 JTAG> >0x40 JTAG> >0x40 JTAG> >0x30 JTAG> >0x40 JTAG> >0x48 JTAG>Found Cortex-M4 r0p1, Little endian. -- CPU_WriteMem(4 bytes @ 0xE0002000) -- CPU_ReadMem(4 bytes @ 0xE000EDF0) -- CPU_ReadMem(4 bytes @ 0xE0002000)FPUnit: 6 code (BP) slots and 2 literal slots -- CPU_ReadMem(4 bytes @ 0xE000EDFC)
 -- CPU_ReadMem(4 bytes @ 0xE0001000) -- CPU_WriteMem(4 bytes @ 0xE0001000) -- CPU_ReadMem(4 bytes @ 0xE000ED88) -- CPU_WriteMem(4 bytes @ 0xE000ED88) -- CPU_ReadMem(4 bytes @ 0xE000ED88) -- CPU_WriteMem(4 bytes @ 0xE000ED88)CoreSight components:ROMTbl 0 @ E00FF000 -- CPU_ReadMem(16 bytes @ 0xE00FF000) -- CPU_ReadMem(16 bytes @ 0xE000EFF0) -- CPU_ReadMem(16 bytes @ 0xE000EFE0)ROMTbl 0 [0]: FFF0F000, CID: B105E00D, PID: 000BB000 SCS -- CPU_ReadMem(16 bytes @ 0xE0001FF0)
 -- CPU_ReadMem(16 bytes @ 0xE0001FE0)ROMTbl 0 [1]: FFF02000, CID: B105E00D, PID: 003BB002 DWT -- CPU_ReadMem(16 bytes @ 0xE0002FF0) -- CPU_ReadMem(16 bytes @ 0xE0002FE0)ROMTbl 0 [2]: FFF03000, CID: B105E00D, PID: 002BB003 FPB -- CPU_ReadMem(16 bytes @ 0xE0000FF0) -- CPU_ReadMem(16 bytes @ 0xE0000FE0)ROMTbl 0 [3]: FFF01000, CID: B105E00D, PID: 003BB001 ITM -- CPU_ReadMem(16 bytes @ 0xE00FF010) -- CPU_ReadMem(16 bytes @ 0xE0040FF0) -- CPU_ReadMem(16 bytes @ 0xE0040FE0)
ROMTbl 0 [4]: FFF41000, CID: B105900D, PID: 000BB9A1 TPIU ScanLen=4 NumDevices=1 aId[0]=0x4BA00477 aIrRead[0]=0 aScanLen[0]=0 aScanRead[0]=0 (0064ms, 95278ms total)
T0EC8 4236:544 JLINK_ConfigJTAG(IRPre = 0, DRPre = 0) (0000ms, 95278ms total)
T0EC8 4236:544 JLINK_SetSpeed(1000) (0001ms, 95279ms total)
T0EC8 4236:545 JLINK_ResetPullsRESET(OFF) (0000ms, 95279ms total)
T0EC8 4236:545 JLINK_Connect() >0x2F8 JTAG>TotalIRLen = 4, IRPrint = 0x01 >0x30 JTAG> >0x210 JTAG> >0x70 JTAG> >0x40 JTAG> >0x40 JTAG> >0x40 JTAG> >0x48 JTAG> >0x78 JTAG> >0x40 JTAG> >0x30 JTAG> >0x40 JTAG> >0x40 JTAG> >0x30 JTAG> >0x40 JTAG> >0x48 JTAG>Found Cortex-M4 r0p1, Little endian. -- CPU_WriteMem(4 bytes @ 0xE0002000) -- CPU_ReadMem(4 bytes @ 0xE000EDF0) -- CPU_ReadMem(4 bytes @ 0xE0002000)FPUnit: 6 code (BP) slots and 2 literal slots -- CPU_ReadMem(4 bytes @ 0xE000EDFC)
 -- CPU_ReadMem(4 bytes @ 0xE0001000) -- CPU_WriteMem(4 bytes @ 0xE0001000) -- CPU_ReadMem(4 bytes @ 0xE000ED88) -- CPU_WriteMem(4 bytes @ 0xE000ED88) -- CPU_ReadMem(4 bytes @ 0xE000ED88) -- CPU_WriteMem(4 bytes @ 0xE000ED88)CoreSight components:ROMTbl 0 @ E00FF000 -- CPU_ReadMem(16 bytes @ 0xE00FF000) -- CPU_ReadMem(16 bytes @ 0xE000EFF0) -- CPU_ReadMem(16 bytes @ 0xE000EFE0)ROMTbl 0 [0]: FFF0F000, CID: B105E00D, PID: 000BB000 SCS -- CPU_ReadMem(16 bytes @ 0xE0001FF0)
 -- CPU_ReadMem(16 bytes @ 0xE0001FE0)ROMTbl 0 [1]: FFF02000, CID: B105E00D, PID: 003BB002 DWT -- CPU_ReadMem(16 bytes @ 0xE0002FF0) -- CPU_ReadMem(16 bytes @ 0xE0002FE0)ROMTbl 0 [2]: FFF03000, CID: B105E00D, PID: 002BB003 FPB -- CPU_ReadMem(16 bytes @ 0xE0000FF0) -- CPU_ReadMem(16 bytes @ 0xE0000FE0)ROMTbl 0 [3]: FFF01000, CID: B105E00D, PID: 003BB001 ITM -- CPU_ReadMem(16 bytes @ 0xE00FF010) -- CPU_ReadMem(16 bytes @ 0xE0040FF0) -- CPU_ReadMem(16 bytes @ 0xE0040FE0)
ROMTbl 0 [4]: FFF41000, CID: B105900D, PID: 000BB9A1 TPIU  returns 0x00 (0060ms, 95339ms total)
T0EC8 4236:606 JLINK_GetDebugInfo(0x100) -- Value=0xE00FF003  returns 0x00 (0000ms, 95340ms total)
T0EC8 4236:606 JLINK_ReadMem (0xE00FFFF0, 0x0010 Bytes, ...) -- CPU is running -- CPU_ReadMem(16 bytes @ 0xE00FFFF0) - Data: 0D 00 00 00 10 00 00 00 05 00 00 00 B1 00 00 00  returns 0x00 (0002ms, 95342ms total)
T0EC8 4236:608 JLINK_ReadMem (0xE00FFFD0, 0x0020 Bytes, ...) -- CPU is running -- CPU_ReadMem(32 bytes @ 0xE00FFFD0) - Data: 04 00 00 00 00 00 00 00 00 00 00 00 00 00 00 00 ...  returns 0x00 (0002ms, 95344ms total)
T0EC8 4236:610 JLINK_ReadMemU32(0xE00FF000, 0x0001 Items, ...) -- CPU is running -- CPU_ReadMem(4 bytes @ 0xE00FF000) - Data: 03 F0 F0 FF  returns 0x01 (0001ms, 95345ms total)
T0EC8 4236:612 JLINK_ReadMem (0xE000EFF0, 0x0010 Bytes, ...) -- CPU is running -- CPU_ReadMem(16 bytes @ 0xE000EFF0) - Data: 0D 00 00 00 E0 00 00 00 05 00 00 00 B1 00 00 00  returns 0x00 (0001ms, 95346ms total)
T0EC8 4236:613 JLINK_ReadMem (0xE000EFD0, 0x0020 Bytes, ...) -- CPU is running -- CPU_ReadMem(32 bytes @ 0xE000EFD0) - Data: 04 00 00 00 00 00 00 00 00 00 00 00 00 00 00 00 ...  returns 0x00 (0002ms, 95348ms total)
T0EC8 4236:615 JLINK_ReadMemU32(0xE00FF004, 0x0001 Items, ...) -- CPU is running -- CPU_ReadMem(4 bytes @ 0xE00FF004) - Data: 03 20 F0 FF  returns 0x01 (0001ms, 95349ms total)
T0EC8 4236:616 JLINK_ReadMem (0xE0001FF0, 0x0010 Bytes, ...) -- CPU is running -- CPU_ReadMem(16 bytes @ 0xE0001FF0) - Data: 0D 00 00 00 E0 00 00 00 05 00 00 00 B1 00 00 00  returns 0x00 (0002ms, 95351ms total)
T0EC8 4236:618 JLINK_ReadMem (0xE0001FD0, 0x0020 Bytes, ...) -- CPU is running -- CPU_ReadMem(32 bytes @ 0xE0001FD0) - Data: 04 00 00 00 00 00 00 00 00 00 00 00 00 00 00 00 ...  returns 0x00 (0002ms, 95353ms total)
T0EC8 4236:620 JLINK_ReadMemU32(0xE00FF008, 0x0001 Items, ...) -- CPU is running -- CPU_ReadMem(4 bytes @ 0xE00FF008) - Data: 03 30 F0 FF  returns 0x01 (0001ms, 95354ms total)
T0EC8 4236:621 JLINK_ReadMem (0xE0002FF0, 0x0010 Bytes, ...) -- CPU is running -- CPU_ReadMem(16 bytes @ 0xE0002FF0) - Data: 0D 00 00 00 E0 00 00 00 05 00 00 00 B1 00 00 00  returns 0x00 (0001ms, 95355ms total)
T0EC8 4236:622 JLINK_ReadMem (0xE0002FD0, 0x0020 Bytes, ...) -- CPU is running -- CPU_ReadMem(32 bytes @ 0xE0002FD0) - Data: 04 00 00 00 00 00 00 00 00 00 00 00 00 00 00 00 ...  returns 0x00 (0002ms, 95357ms total)
T0EC8 4236:624 JLINK_ReadMemU32(0xE00FF00C, 0x0001 Items, ...) -- CPU is running -- CPU_ReadMem(4 bytes @ 0xE00FF00C) - Data: 03 10 F0 FF  returns 0x01 (0002ms, 95359ms total)
T0EC8 4236:626 JLINK_ReadMem (0xE0000FF0, 0x0010 Bytes, ...) -- CPU is running -- CPU_ReadMem(16 bytes @ 0xE0000FF0) - Data: 0D 00 00 00 E0 00 00 00 05 00 00 00 B1 00 00 00  returns 0x00 (0001ms, 95360ms total)
T0EC8 4236:627 JLINK_ReadMem (0xE0000FD0, 0x0020 Bytes, ...) -- CPU is running -- CPU_ReadMem(32 bytes @ 0xE0000FD0) - Data: 04 00 00 00 00 00 00 00 00 00 00 00 00 00 00 00 ...  returns 0x00 (0002ms, 95362ms total)
T0EC8 4236:629 JLINK_ReadMemU32(0xE00FF010, 0x0001 Items, ...) -- CPU is running -- CPU_ReadMem(4 bytes @ 0xE00FF010) - Data: 03 10 F4 FF  returns 0x01 (0001ms, 95363ms total)
T0EC8 4236:630 JLINK_ReadMem (0xE0040FF0, 0x0010 Bytes, ...) -- CPU is running -- CPU_ReadMem(16 bytes @ 0xE0040FF0) - Data: 0D 00 00 00 90 00 00 00 05 00 00 00 B1 00 00 00  returns 0x00 (0002ms, 95365ms total)
T0EC8 4236:632 JLINK_ReadMem (0xE0040FD0, 0x0020 Bytes, ...) -- CPU is running -- CPU_ReadMem(32 bytes @ 0xE0040FD0) - Data: 04 00 00 00 00 00 00 00 00 00 00 00 00 00 00 00 ...  returns 0x00 (0002ms, 95367ms total)
T0EC8 4236:634 JLINK_ReadMemU32(0xE00FF014, 0x0001 Items, ...) -- CPU is running -- CPU_ReadMem(4 bytes @ 0xE00FF014) - Data: 02 20 F4 FF  returns 0x01 (0001ms, 95368ms total)
T0EC8 4236:635 JLINK_ReadMemU32(0xE00FF018, 0x0001 Items, ...) -- CPU is running -- CPU_ReadMem(4 bytes @ 0xE00FF018) - Data: 00 00 00 00  returns 0x01 (0001ms, 95369ms total)
T0EC8 4236:636 JLINK_ReadMem (0xE0001000, 0x0004 Bytes, ...) -- CPU is running -- CPU_ReadMem(4 bytes @ 0xE0001000) - Data: 01 00 00 40  returns 0x00 (0002ms, 95371ms total)
T0EC8 4236:638 JLINK_ReadMem (0xE0001000, 0x0004 Bytes, ...) -- CPU is running -- CPU_ReadMem(4 bytes @ 0xE0001000) - Data: 01 00 00 40  returns 0x00 (0001ms, 95372ms total)
T0EC8 4236:639 JLINK_ReadMem (0xE0001028, 0x0004 Bytes, ...) -- CPU is running -- CPU_ReadMem(4 bytes @ 0xE0001028) - Data: 00 00 00 00  returns 0x00 (0001ms, 95373ms total)
T0EC8 4236:640 JLINK_WriteMem(0xE0001028, 0x0004 Bytes, ...) - Data: 00 01 00 00 -- CPU is running -- CPU_WriteMem(4 bytes @ 0xE0001028)  returns 0x04 (0002ms, 95375ms total)
T0EC8 4236:642 JLINK_ReadMem (0xE0001028, 0x0004 Bytes, ...) -- CPU is running -- CPU_ReadMem(4 bytes @ 0xE0001028) - Data: 00 00 00 00  returns 0x00 (0001ms, 95376ms total)
T0EC8 4236:643 JLINK_ReadMem (0xE0001038, 0x0004 Bytes, ...) -- CPU is running -- CPU_ReadMem(4 bytes @ 0xE0001038) - Data: 00 02 00 00  returns 0x00 (0001ms, 95377ms total)
T0EC8 4236:644 JLINK_WriteMem(0xE0001038, 0x0004 Bytes, ...) - Data: 00 03 00 00 -- CPU is running -- CPU_WriteMem(4 bytes @ 0xE0001038)  returns 0x04 (0001ms, 95378ms total)
T0EC8 4236:645 JLINK_ReadMem (0xE0001038, 0x0004 Bytes, ...) -- CPU is running -- CPU_ReadMem(4 bytes @ 0xE0001038) - Data: 00 03 00 00  returns 0x00 (0002ms, 95380ms total)
T0EC8 4236:647 JLINK_ReadMem (0xE0001048, 0x0004 Bytes, ...) -- CPU is running -- CPU_ReadMem(4 bytes @ 0xE0001048) - Data: 00 00 00 00  returns 0x00 (0001ms, 95381ms total)
T0EC8 4236:648 JLINK_WriteMem(0xE0001048, 0x0004 Bytes, ...) - Data: 00 01 00 00 -- CPU is running -- CPU_WriteMem(4 bytes @ 0xE0001048)  returns 0x04 (0001ms, 95382ms total)
T0EC8 4236:649 JLINK_ReadMem (0xE0001048, 0x0004 Bytes, ...) -- CPU is running -- CPU_ReadMem(4 bytes @ 0xE0001048) - Data: 00 00 00 00  returns 0x00 (0001ms, 95383ms total)
T0EC8 4236:650 JLINK_ReadMem (0xE0001058, 0x0004 Bytes, ...) -- CPU is running -- CPU_ReadMem(4 bytes @ 0xE0001058) - Data: 00 00 00 00  returns 0x00 (0002ms, 95385ms total)
T0EC8 4236:652 JLINK_WriteMem(0xE0001058, 0x0004 Bytes, ...) - Data: 00 01 00 00 -- CPU is running -- CPU_WriteMem(4 bytes @ 0xE0001058)  returns 0x04 (0001ms, 95386ms total)
T0EC8 4236:653 JLINK_ReadMem (0xE0001058, 0x0004 Bytes, ...) -- CPU is running -- CPU_ReadMem(4 bytes @ 0xE0001058) - Data: 00 00 00 00  returns 0x00 (0001ms, 95387ms total)
T0EC8 4236:654 JLINK_ReadMem (0xE0001024, 0x0004 Bytes, ...) -- CPU is running -- CPU_ReadMem(4 bytes @ 0xE0001024) - Data: 00 00 00 00  returns 0x00 (0002ms, 95389ms total)
T0EC8 4236:656 JLINK_WriteMem(0xE0001024, 0x0004 Bytes, ...) - Data: 1F 00 00 00 -- CPU is running -- CPU_WriteMem(4 bytes @ 0xE0001024)  returns 0x04 (0001ms, 95390ms total)
T0EC8 4236:657 JLINK_ReadMem (0xE0001024, 0x0004 Bytes, ...) -- CPU is running -- CPU_ReadMem(4 bytes @ 0xE0001024) - Data: 0F 00 00 00  returns 0x00 (0001ms, 95391ms total)
T0EC8 4236:658 JLINK_ReadMem (0xE0001034, 0x0004 Bytes, ...) -- CPU is running -- CPU_ReadMem(4 bytes @ 0xE0001034) - Data: 00 00 00 00  returns 0x00 (0002ms, 95393ms total)
T0EC8 4236:660 JLINK_WriteMem(0xE0001034, 0x0004 Bytes, ...) - Data: 1F 00 00 00 -- CPU is running -- CPU_WriteMem(4 bytes @ 0xE0001034)  returns 0x04 (0002ms, 95395ms total)
T0EC8 4236:662 JLINK_ReadMem (0xE0001034, 0x0004 Bytes, ...) -- CPU is running -- CPU_ReadMem(4 bytes @ 0xE0001034) - Data: 0F 00 00 00  returns 0x00 (0002ms, 95397ms total)
T0EC8 4236:664 JLINK_ReadMem (0xE0001044, 0x0004 Bytes, ...) -- CPU is running -- CPU_ReadMem(4 bytes @ 0xE0001044) - Data: 00 00 00 00  returns 0x00 (0002ms, 95399ms total)
T0EC8 4236:666 JLINK_WriteMem(0xE0001044, 0x0004 Bytes, ...) - Data: 1F 00 00 00 -- CPU is running -- CPU_WriteMem(4 bytes @ 0xE0001044)  returns 0x04 (0002ms, 95401ms total)
T0EC8 4236:668 JLINK_ReadMem (0xE0001044, 0x0004 Bytes, ...) -- CPU is running -- CPU_ReadMem(4 bytes @ 0xE0001044) - Data: 0F 00 00 00  returns 0x00 (0002ms, 95403ms total)
T0EC8 4236:670 JLINK_ReadMem (0xE0001054, 0x0004 Bytes, ...) -- CPU is running -- CPU_ReadMem(4 bytes @ 0xE0001054) - Data: 00 00 00 00  returns 0x00 (0002ms, 95405ms total)
T0EC8 4236:672 JLINK_WriteMem(0xE0001054, 0x0004 Bytes, ...) - Data: 1F 00 00 00 -- CPU is running -- CPU_WriteMem(4 bytes @ 0xE0001054)  returns 0x04 (0002ms, 95407ms total)
T0EC8 4236:674 JLINK_ReadMem (0xE0001054, 0x0004 Bytes, ...) -- CPU is running -- CPU_ReadMem(4 bytes @ 0xE0001054) - Data: 0F 00 00 00  returns 0x00 (0002ms, 95409ms total)
T0EC8 4236:676 JLINK_ReadMem (0xE0001028, 0x0004 Bytes, ...) -- CPU is running -- CPU_ReadMem(4 bytes @ 0xE0001028) - Data: 00 00 00 00  returns 0x00 (0002ms, 95411ms total)
T0EC8 4236:678 JLINK_ReadMem (0xE0001038, 0x0004 Bytes, ...) -- CPU is running -- CPU_ReadMem(4 bytes @ 0xE0001038) - Data: 00 03 00 00  returns 0x00 (0002ms, 95413ms total)
T0EC8 4236:680 JLINK_ReadMem (0xE0001048, 0x0004 Bytes, ...) -- CPU is running -- CPU_ReadMem(4 bytes @ 0xE0001048) - Data: 00 00 00 00  returns 0x00 (0002ms, 95415ms total)
T0EC8 4236:682 JLINK_ReadMem (0xE0001058, 0x0004 Bytes, ...) -- CPU is running -- CPU_ReadMem(4 bytes @ 0xE0001058) - Data: 00 00 00 00  returns 0x00 (0001ms, 95416ms total)
T0EC8 4236:683 JLINK_WriteMem(0xE0001020, 0x0004 Bytes, ...) - Data: 00 00 00 00 -- CPU is running -- CPU_WriteMem(4 bytes @ 0xE0001020)  returns 0x04 (0002ms, 95418ms total)
T0EC8 4236:685 JLINK_WriteMem(0xE0001024, 0x0004 Bytes, ...) - Data: 00 00 00 00 -- CPU is running -- CPU_WriteMem(4 bytes @ 0xE0001024)  returns 0x04 (0001ms, 95419ms total)
T0EC8 4236:686 JLINK_WriteMem(0xE0001028, 0x0004 Bytes, ...) - Data: 00 00 00 00 -- CPU is running -- CPU_WriteMem(4 bytes @ 0xE0001028)  returns 0x04 (0001ms, 95420ms total)
T0EC8 4236:687 JLINK_WriteMem(0xE0001030, 0x0004 Bytes, ...) - Data: 00 00 00 00 -- CPU is running -- CPU_WriteMem(4 bytes @ 0xE0001030)  returns 0x04 (0001ms, 95421ms total)
T0EC8 4236:688 JLINK_WriteMem(0xE0001034, 0x0004 Bytes, ...) - Data: 00 00 00 00 -- CPU is running -- CPU_WriteMem(4 bytes @ 0xE0001034)  returns 0x04 (0001ms, 95422ms total)
T0EC8 4236:689 JLINK_WriteMem(0xE0001038, 0x0004 Bytes, ...) - Data: 00 00 00 00 -- CPU is running -- CPU_WriteMem(4 bytes @ 0xE0001038)  returns 0x04 (0002ms, 95424ms total)
T0EC8 4236:691 JLINK_WriteMem(0xE0001040, 0x0004 Bytes, ...) - Data: 00 00 00 00 -- CPU is running -- CPU_WriteMem(4 bytes @ 0xE0001040)  returns 0x04 (0001ms, 95425ms total)
T0EC8 4236:692 JLINK_WriteMem(0xE0001044, 0x0004 Bytes, ...) - Data: 00 00 00 00 -- CPU is running -- CPU_WriteMem(4 bytes @ 0xE0001044)  returns 0x04 (0001ms, 95426ms total)
T0EC8 4236:693 JLINK_WriteMem(0xE0001048, 0x0004 Bytes, ...) - Data: 00 00 00 00 -- CPU is running -- CPU_WriteMem(4 bytes @ 0xE0001048)  returns 0x04 (0003ms, 95429ms total)
T0EC8 4236:696 JLINK_WriteMem(0xE0001050, 0x0004 Bytes, ...) - Data: 00 00 00 00 -- CPU is running -- CPU_WriteMem(4 bytes @ 0xE0001050)  returns 0x04 (0001ms, 95430ms total)
T0EC8 4236:697 JLINK_WriteMem(0xE0001054, 0x0004 Bytes, ...) - Data: 00 00 00 00 -- CPU is running -- CPU_WriteMem(4 bytes @ 0xE0001054)  returns 0x04 (0002ms, 95432ms total)
T0EC8 4236:699 JLINK_WriteMem(0xE0001058, 0x0004 Bytes, ...) - Data: 00 00 00 00 -- CPU is running -- CPU_WriteMem(4 bytes @ 0xE0001058)  returns 0x04 (0002ms, 95434ms total)
T0EC8 4236:701 JLINK_Halt()  returns 0x00 (0009ms, 95443ms total)
T0EC8 4236:710 JLINK_WriteMem(0x400E0A04, 0x0004 Bytes, ...) - Data: 0B 01 00 5A -- CPU_WriteMem(4 bytes @ 0x400E0A04)  returns 0x04 (0002ms, 95445ms total)
T0EC8 4236:712 JLINK_ReadMem (0x400E0A08, 0x0004 Bytes, ...) -- CPU_ReadMem(4 bytes @ 0x400E0A08) - Data: 01 00 00 00  returns 0x00 (0001ms, 95446ms total)
T0EC8 4236:713 JLINK_WriteMem(0x400E0A04, 0x0004 Bytes, ...) - Data: 0C 02 00 5A -- CPU_WriteMem(4 bytes @ 0x400E0A04)  returns 0x04 (0002ms, 95448ms total)
T0EC8 4236:715 JLINK_ReadMem (0x400E0A08, 0x0004 Bytes, ...) -- CPU_ReadMem(4 bytes @ 0x400E0A08) - Data: 01 00 00 00  returns 0x00 (0001ms, 95449ms total)
T0EC8 4236:716 JLINK_Reset() -- CPU_ReadMem(16 bytes @ 0x20000000) -- CPU_WriteMem(16 bytes @ 0x20000000) -- CPU_ReadMem(4 bytes @ 0xE000EDFC) -- CPU_WriteMem(4 bytes @ 0xE000EDFC) -- CPU_ReadMem(4 bytes @ 0xE0001000) -- CPU_WriteMem(4 bytes @ 0xE000EDFC) -- CPU_WriteMem(16 bytes @ 0x20000000) -- CPU_WriteMem(4 bytes @ 0xE0002000) -- CPU_ReadMem(4 bytes @ 0xE000EDFC) -- CPU_ReadMem(4 bytes @ 0xE0001000) (0051ms, 95500ms total)
T0EC8 4236:769 JLINK_JTAG_GetDeviceID(DeviceIndex = 0)  returns 0x4BA00477 (0000ms, 95500ms total)
T0EC8 4236:769 JLINK_ReadMemU32(0x400E0740, 0x0001 Items, ...) -- CPU_ReadMem(4 bytes @ 0x400E0740) - Data: E0 0E A7 29  returns 0x01 (0002ms, 95502ms total)
T0EC8 4236:771 JLINK_ReadMemU32(0x400E0744, 0x0001 Items, ...) -- CPU_ReadMem(4 bytes @ 0x400E0744) - Data: 00 00 00 00  returns 0x01 (0003ms, 95505ms total)
T0EC8 4236:774 JLINK_WriteMem(0x400E0A04, 0x0004 Bytes, ...) - Data: 05 00 00 5A -- CPU_WriteMem(4 bytes @ 0x400E0A04)  returns 0x04 (0003ms, 95508ms total)
T0EC8 4236:778 JLINK_WriteMem(0x400E0C04, 0x0004 Bytes, ...) - Data: 05 00 00 5A -- CPU_WriteMem(4 bytes @ 0x400E0C04)  returns 0x04 (0001ms, 95509ms total)
T1940 4236:779 JLINK_IsHalted()  returns TRUE (0000ms, 95509ms total)
T0EC8 4236:780 JLINK_ReadMem (0x400E0A08, 0x0004 Bytes, ...) -- CPU_ReadMem(4 bytes @ 0x400E0A08) - Data: 00 00 00 00  returns 0x00 (0002ms, 95512ms total)
T1940 4236:782 JLINK_GetMOEs(...) -- CPU_ReadMem(4 bytes @ 0xE000ED30) -- CPU_WriteMem(4 bytes @ 0xE000ED30)  returns 0x01 (0004ms, 95516ms total)
T0EC8 4236:786 JLINK_ReadMem (0x400E0A08, 0x0004 Bytes, ...) -- CPU_ReadMem(4 bytes @ 0x400E0A08) - Data: 00 00 00 00  returns 0x00 (0002ms, 95518ms total)
T1940 4236:788 JLINK_ReadReg(R15 (PC))  returns 0x00400880 (0000ms, 95518ms total)
T0EC8 4236:793 JLINK_ReadMem (0x400E0A08, 0x0004 Bytes, ...) -- CPU_ReadMem(4 bytes @ 0x400E0A08) - Data: 00 00 00 00  returns 0x00 (0002ms, 95520ms total)
T0EC8 4236:812 JLINK_ReadMem (0x400E0A08, 0x0004 Bytes, ...) -- CPU_ReadMem(4 bytes @ 0x400E0A08) - Data: 00 00 00 00  returns 0x00 (0001ms, 95521ms total)
T0EC8 4236:878 JLINK_ReadMem (0x400E0A08, 0x0004 Bytes, ...) -- CPU_ReadMem(4 bytes @ 0x400E0A08) - Data: 00 00 00 00  returns 0x00 (0001ms, 95522ms total)
T1940 4236:989 JLINK_IsHalted()  returns TRUE (0000ms, 95522ms total)
T0EC8 4237:135 JLINK_ReadMem (0x400E0A08, 0x0004 Bytes, ...) -- CPU_ReadMem(4 bytes @ 0x400E0A08) - Data: 00 00 00 00  returns 0x00 (0001ms, 95523ms total)
T1940 4237:189 JLINK_IsHalted()  returns TRUE (0000ms, 95523ms total)
T1940 4237:389 JLINK_IsHalted()  returns TRUE (0002ms, 95525ms total)
T1940 4237:592 JLINK_IsHalted()  returns TRUE (0000ms, 95523ms total)
T1940 4237:792 JLINK_IsHalted()  returns TRUE (0001ms, 95524ms total)
T1940 4237:993 JLINK_IsHalted()  returns TRUE (0001ms, 95524ms total)
T0EC8 4238:136 JLINK_ReadMem (0x400E0A08, 0x0004 Bytes, ...) -- CPU_ReadMem(4 bytes @ 0x400E0A08) - Data: 00 00 00 00  returns 0x00 (0001ms, 95524ms total)
T0EC8 4238:137 JLINK_ReadMem (0x400E0C08, 0x0004 Bytes, ...) -- CPU_ReadMem(4 bytes @ 0x400E0C08) - Data: 00 00 00 00  returns 0x00 (0002ms, 95526ms total)
T0EC8 4238:141 JLINK_ReadMem (0x400E0C08, 0x0004 Bytes, ...) -- CPU_ReadMem(4 bytes @ 0x400E0C08) - Data: 00 00 00 00  returns 0x00 (0001ms, 95527ms total)
T0EC8 4238:147 JLINK_ReadMem (0x400E0C08, 0x0004 Bytes, ...) -- CPU_ReadMem(4 bytes @ 0x400E0C08) - Data: 00 00 00 00  returns 0x00 (0001ms, 95528ms total)
T0EC8 4238:165 JLINK_ReadMem (0x400E0C08, 0x0004 Bytes, ...) -- CPU_ReadMem(4 bytes @ 0x400E0C08) - Data: 00 00 00 00  returns 0x00 (0001ms, 95529ms total)
T1940 4238:194 JLINK_IsHalted()  returns TRUE (0000ms, 95529ms total)
T0EC8 4238:230 JLINK_ReadMem (0x400E0C08, 0x0004 Bytes, ...) -- CPU_ReadMem(4 bytes @ 0x400E0C08) - Data: 00 00 00 00  returns 0x00 (0001ms, 95530ms total)
T1940 4238:395 JLINK_IsHalted()  returns TRUE (0000ms, 95530ms total)
T0EC8 4238:487 JLINK_ReadMem (0x400E0C08, 0x0004 Bytes, ...) -- CPU_ReadMem(4 bytes @ 0x400E0C08) - Data: 00 00 00 00  returns 0x00 (0001ms, 95531ms total)
T1940 4238:596 JLINK_IsHalted()  returns TRUE (0001ms, 95532ms total)
T1940 4238:798 JLINK_IsHalted()  returns TRUE (0001ms, 95532ms total)
T1940 4238:999 JLINK_IsHalted()  returns TRUE (0000ms, 95531ms total)
T1940 4239:199 JLINK_IsHalted()  returns TRUE (0001ms, 95532ms total)
T1940 4239:400 JLINK_IsHalted()  returns TRUE (0000ms, 95531ms total)
T0EC8 4239:488 JLINK_ReadMem (0x400E0C08, 0x0004 Bytes, ...) -- CPU_ReadMem(4 bytes @ 0x400E0C08) - Data: 00 00 00 00  returns 0x00 (0001ms, 95532ms total)
T0EC8 4239:489 JLINK_ReadMem (0x400E0A08, 0x0004 Bytes, ...) -- CPU_ReadMem(4 bytes @ 0x400E0A08) - Data: 00 00 00 00  returns 0x00 (0002ms, 95534ms total)
T0EC8 4239:493 JLINK_ReadMem (0x400E0A08, 0x0004 Bytes, ...) -- CPU_ReadMem(4 bytes @ 0x400E0A08) - Data: 00 00 00 00  returns 0x00 (0001ms, 95535ms total)
T0EC8 4239:499 JLINK_ReadMem (0x400E0A08, 0x0004 Bytes, ...) -- CPU_ReadMem(4 bytes @ 0x400E0A08) - Data: 00 00 00 00  returns 0x00 (0001ms, 95536ms total)
T0EC8 4239:517 JLINK_ReadMem (0x400E0A08, 0x0004 Bytes, ...) -- CPU_ReadMem(4 bytes @ 0x400E0A08) - Data: 00 00 00 00  returns 0x00 (0001ms, 95537ms total)
T0EC8 4239:582 JLINK_ReadMem (0x400E0A08, 0x0004 Bytes, ...) -- CPU_ReadMem(4 bytes @ 0x400E0A08) - Data: 00 00 00 00  returns 0x00 (0001ms, 95538ms total)
T1940 4239:600 JLINK_IsHalted()  returns TRUE (0000ms, 95538ms total)
T1940 4239:800 JLINK_IsHalted()  returns TRUE (0002ms, 95540ms total)
T0EC8 4239:839 JLINK_ReadMem (0x400E0A08, 0x0004 Bytes, ...) -- CPU_ReadMem(4 bytes @ 0x400E0A08) - Data: 00 00 00 00  returns 0x00 (0001ms, 95539ms total)
T1940 4240:002 JLINK_IsHalted()  returns TRUE (0000ms, 95539ms total)
T1940 4240:202 JLINK_IsHalted()  returns TRUE (0000ms, 95539ms total)
T1940 4240:403 JLINK_IsHalted()  returns TRUE (0001ms, 95540ms total)
T1940 4240:604 JLINK_IsHalted()  returns TRUE (0000ms, 95539ms total)
T1940 4240:805 JLINK_IsHalted()  returns TRUE (0000ms, 95539ms total)
T0EC8 4240:840 JLINK_ReadMem (0x400E0A08, 0x0004 Bytes, ...) -- CPU_ReadMem(4 bytes @ 0x400E0A08) - Data: 00 00 00 00  returns 0x00 (0001ms, 95540ms total)
T0EC8 4240:841 JLINK_ReadMem (0x400E0C08, 0x0004 Bytes, ...) -- CPU_ReadMem(4 bytes @ 0x400E0C08) - Data: 00 00 00 00  returns 0x00 (0001ms, 95541ms total)
T0EC8 4240:844 JLINK_ReadMem (0x400E0C08, 0x0004 Bytes, ...) -- CPU_ReadMem(4 bytes @ 0x400E0C08) - Data: 00 00 00 00  returns 0x00 (0001ms, 95542ms total)
T0EC8 4240:851 JLINK_ReadMem (0x400E0C08, 0x0004 Bytes, ...) -- CPU_ReadMem(4 bytes @ 0x400E0C08) - Data: 00 00 00 00  returns 0x00 (0000ms, 95542ms total)
T0EC8 4240:869 JLINK_ReadMem (0x400E0C08, 0x0004 Bytes, ...) -- CPU_ReadMem(4 bytes @ 0x400E0C08) - Data: 00 00 00 00  returns 0x00 (0000ms, 95542ms total)
T0EC8 4240:934 JLINK_ReadMem (0x400E0C08, 0x0004 Bytes, ...) -- CPU_ReadMem(4 bytes @ 0x400E0C08) - Data: 00 00 00 00  returns 0x00 (0000ms, 95542ms total)
T1940 4241:006 JLINK_IsHalted()  returns TRUE (0000ms, 95542ms total)
T0EC8 4241:191 JLINK_ReadMem (0x400E0C08, 0x0004 Bytes, ...) -- CPU_ReadMem(4 bytes @ 0x400E0C08) - Data: 00 00 00 00  returns 0x00 (0000ms, 95542ms total)
T1940 4241:207 JLINK_IsHalted()  returns TRUE (0000ms, 95542ms total)
T1940 4241:407 JLINK_IsHalted()  returns TRUE (0000ms, 95542ms total)
T1940 4241:607 JLINK_IsHalted()  returns TRUE (0000ms, 95542ms total)
T1940 4241:808 JLINK_IsHalted()  returns TRUE (0000ms, 95542ms total)
T1940 4242:009 JLINK_IsHalted()  returns TRUE (0000ms, 95542ms total)
T0EC8 4242:192 JLINK_ReadMem (0x400E0C08, 0x0004 Bytes, ...) -- CPU_ReadMem(4 bytes @ 0x400E0C08) - Data: 01 00 00 00  returns 0x00 (0001ms, 95543ms total)
T0EC8 4242:193 JLINK_ReadMem (0x400E0A08, 0x0004 Bytes, ...) -- CPU_ReadMem(4 bytes @ 0x400E0A08) - Data: 01 00 00 00  returns 0x00 (0001ms, 95544ms total)
T1940 4242:210 JLINK_IsHalted()  returns TRUE (0000ms, 95544ms total)
T0EC8 4242:211 JLINK_ResetPullsRESET(ON) (0000ms, 95544ms total)
T0EC8 4242:211 JLINK_ResetNoHalt() >0x2F8 JTAG>TotalIRLen = 4, IRPrint = 0x01 >0x30 JTAG> >0x210 JTAG> >0x70 JTAG> >0x40 JTAG> >0x40 JTAG> >0x40 JTAG> >0x48 JTAG> >0x78 JTAG> >0x40 JTAG> >0x30 JTAG> >0x40 JTAG> >0x40 JTAG> >0x30 JTAG> >0x40 JTAG> >0x48 JTAG>Found Cortex-M4 r0p1, Little endian. -- CPU_WriteMem(4 bytes @ 0xE0002000) -- CPU_ReadMem(4 bytes @ 0xE000EDF0) -- CPU_ReadMem(4 bytes @ 0xE0002000)FPUnit: 6 code (BP) slots and 2 literal slots -- CPU_ReadMem(4 bytes @ 0xE000EDFC)
 -- CPU_ReadMem(4 bytes @ 0xE0001000) -- CPU_ReadMem(4 bytes @ 0xE000ED88) -- CPU_WriteMem(4 bytes @ 0xE000ED88) -- CPU_ReadMem(4 bytes @ 0xE000ED88) -- CPU_WriteMem(4 bytes @ 0xE000ED88)CoreSight components:ROMTbl 0 @ E00FF000 -- CPU_ReadMem(16 bytes @ 0xE00FF000) -- CPU_ReadMem(16 bytes @ 0xE000EFF0) -- CPU_ReadMem(16 bytes @ 0xE000EFE0)ROMTbl 0 [0]: FFF0F000, CID: B105E00D, PID: 000BB000 SCS -- CPU_WriteMem(4 bytes @ 0xE0001000) -- CPU_ReadMem(16 bytes @ 0xE0001FF0)
 -- CPU_ReadMem(16 bytes @ 0xE0001FE0)ROMTbl 0 [1]: FFF02000, CID: B105E00D, PID: 003BB002 DWT -- CPU_ReadMem(16 bytes @ 0xE0002FF0) -- CPU_ReadMem(16 bytes @ 0xE0002FE0)ROMTbl 0 [2]: FFF03000, CID: B105E00D, PID: 002BB003 FPB -- CPU_ReadMem(16 bytes @ 0xE0000FF0) -- CPU_ReadMem(16 bytes @ 0xE0000FE0)ROMTbl 0 [3]: FFF01000, CID: B105E00D, PID: 003BB001 ITM -- CPU_ReadMem(16 bytes @ 0xE00FF010) -- CPU_ReadMem(16 bytes @ 0xE0040FF0) -- CPU_ReadMem(16 bytes @ 0xE0040FE0)
ROMTbl 0 [4]: FFF41000, CID: B105900D, PID: 000BB9A1 TPIU
                JLINK_Reset() -- CPU_ReadMem(16 bytes @ 0x20000000) -- CPU_WriteMem(16 bytes @ 0x20000000) -- CPU_ReadMem(4 bytes @ 0xE000EDFC) -- CPU_WriteMem(4 bytes @ 0xE000EDFC) -- CPU_ReadMem(4 bytes @ 0xE0001000) -- CPU_WriteMem(4 bytes @ 0xE0001004) -- CPU_WriteMem(4 bytes @ 0xE000EDFC) -- CPU_WriteMem(16 bytes @ 0x20000000) -- CPU_WriteMem(4 bytes @ 0xE0002000) -- CPU_ReadMem(4 bytes @ 0xE000EDFC) -- CPU_ReadMem(4 bytes @ 0xE0001000) (0040ms, 0040ms total)
                JLINK_Go() -- CPU_ReadMem(4 bytes @ 0xE0001000) -- CPU_WriteMem(4 bytes @ 0xE0001004) (0003ms, 0043ms total)
               (0083ms, 95627ms total)
T0EC8 4242:295 JLINK_ExecCommand("ProjectFile = C:\Users\Lucas\Documents\GitHub\Entregas\15-DAC\DACC_SINEWAVE_EXAMPLE1\jlink.config", ...)  returns 0x00 (0000ms, 95627ms total)
T0EC8 4242:309 JLINK_ExecCommand("Device = AT91SAM4SD32C", ...)Device "ATSAM4SD32C" selected.  returns 0x00 (0001ms, 95628ms total)
T0EC8 4242:310 JLINK_TIF_Select(JLINKARM_TIF_JTAG)  returns 0x00 (0000ms, 95628ms total)
T0EC8 4242:310 JLINK_GetIdData(...) ScanLen=4 NumDevices=1 aId[0]=0x4BA00477 aIrRead[0]=0 aScanLen[0]=0 aScanRead[0]=0 (0000ms, 95628ms total)
T0EC8 4242:310 JLINK_ConfigJTAG(IRPre = 0, DRPre = 0) (0000ms, 95628ms total)
T0EC8 4242:310 JLINK_SetSpeed(4000) (0000ms, 95628ms total)
T0EC8 4242:310 JLINK_ResetPullsRESET(OFF) (0000ms, 95628ms total)
T0EC8 4242:310 JLINK_Connect() >0x2F8 JTAG>TotalIRLen = 4, IRPrint = 0x01 >0x30 JTAG> >0x210 JTAG> >0x70 JTAG> >0x40 JTAG> >0x40 JTAG> >0x40 JTAG> >0x48 JTAG> >0x78 JTAG> >0x40 JTAG> >0x30 JTAG> >0x40 JTAG> >0x40 JTAG> >0x30 JTAG> >0x40 JTAG> >0x48 JTAG>Found Cortex-M4 r0p1, Little endian. -- CPU_WriteMem(4 bytes @ 0xE0002000) -- CPU_ReadMem(4 bytes @ 0xE000EDF0) -- CPU_ReadMem(4 bytes @ 0xE0002000)FPUnit: 6 code (BP) slots and 2 literal slots -- CPU_ReadMem(4 bytes @ 0xE000EDFC)
 -- CPU_ReadMem(4 bytes @ 0xE0001000) -- CPU_WriteMem(4 bytes @ 0xE0001000) -- CPU_ReadMem(4 bytes @ 0xE000ED88) -- CPU_WriteMem(4 bytes @ 0xE000ED88) -- CPU_ReadMem(4 bytes @ 0xE000ED88) -- CPU_WriteMem(4 bytes @ 0xE000ED88)CoreSight components:ROMTbl 0 @ E00FF000 -- CPU_ReadMem(16 bytes @ 0xE00FF000) -- CPU_ReadMem(16 bytes @ 0xE000EFF0) -- CPU_ReadMem(16 bytes @ 0xE000EFE0)ROMTbl 0 [0]: FFF0F000, CID: B105E00D, PID: 000BB000 SCS -- CPU_ReadMem(16 bytes @ 0xE0001FF0)
 -- CPU_ReadMem(16 bytes @ 0xE0001FE0)ROMTbl 0 [1]: FFF02000, CID: B105E00D, PID: 003BB002 DWT -- CPU_ReadMem(16 bytes @ 0xE0002FF0) -- CPU_ReadMem(16 bytes @ 0xE0002FE0)ROMTbl 0 [2]: FFF03000, CID: B105E00D, PID: 002BB003 FPB -- CPU_ReadMem(16 bytes @ 0xE0000FF0) -- CPU_ReadMem(16 bytes @ 0xE0000FE0)ROMTbl 0 [3]: FFF01000, CID: B105E00D, PID: 003BB001 ITM -- CPU_ReadMem(16 bytes @ 0xE00FF010) -- CPU_ReadMem(16 bytes @ 0xE0040FF0) -- CPU_ReadMem(16 bytes @ 0xE0040FE0)
ROMTbl 0 [4]: FFF41000, CID: B105900D, PID: 000BB9A1 TPIU  returns 0x00 (0037ms, 95665ms total)
T0EC8 4242:347 JLINK_WriteMem(0xE0001020, 0x0004 Bytes, ...) - Data: 00 00 00 00 -- CPU is running -- CPU_WriteMem(4 bytes @ 0xE0001020)  returns 0x04 (0002ms, 95667ms total)
T0EC8 4242:349 JLINK_WriteMem(0xE0001024, 0x0004 Bytes, ...) - Data: 00 00 00 00 -- CPU is running -- CPU_WriteMem(4 bytes @ 0xE0001024)  returns 0x04 (0002ms, 95669ms total)
T0EC8 4242:351 JLINK_WriteMem(0xE0001028, 0x0004 Bytes, ...) - Data: 00 00 00 00 -- CPU is running -- CPU_WriteMem(4 bytes @ 0xE0001028)  returns 0x04 (0001ms, 95670ms total)
T0EC8 4242:352 JLINK_WriteMem(0xE0001030, 0x0004 Bytes, ...) - Data: 00 00 00 00 -- CPU is running -- CPU_WriteMem(4 bytes @ 0xE0001030)  returns 0x04 (0000ms, 95670ms total)
T0EC8 4242:352 JLINK_WriteMem(0xE0001034, 0x0004 Bytes, ...) - Data: 00 00 00 00 -- CPU is running -- CPU_WriteMem(4 bytes @ 0xE0001034)  returns 0x04 (0001ms, 95671ms total)
T0EC8 4242:353 JLINK_WriteMem(0xE0001038, 0x0004 Bytes, ...) - Data: 00 00 00 00 -- CPU is running -- CPU_WriteMem(4 bytes @ 0xE0001038)  returns 0x04 (0001ms, 95672ms total)
T0EC8 4242:354 JLINK_WriteMem(0xE0001040, 0x0004 Bytes, ...) - Data: 00 00 00 00 -- CPU is running -- CPU_WriteMem(4 bytes @ 0xE0001040)  returns 0x04 (0002ms, 95674ms total)
T0EC8 4242:356 JLINK_WriteMem(0xE0001044, 0x0004 Bytes, ...) - Data: 00 00 00 00 -- CPU is running -- CPU_WriteMem(4 bytes @ 0xE0001044)  returns 0x04 (0001ms, 95675ms total)
T0EC8 4242:357 JLINK_WriteMem(0xE0001048, 0x0004 Bytes, ...) - Data: 00 00 00 00 -- CPU is running -- CPU_WriteMem(4 bytes @ 0xE0001048)  returns 0x04 (0000ms, 95675ms total)
T0EC8 4242:357 JLINK_WriteMem(0xE0001050, 0x0004 Bytes, ...) - Data: 00 00 00 00 -- CPU is running -- CPU_WriteMem(4 bytes @ 0xE0001050)  returns 0x04 (0001ms, 95676ms total)
T0EC8 4242:358 JLINK_WriteMem(0xE0001054, 0x0004 Bytes, ...) - Data: 00 00 00 00 -- CPU is running -- CPU_WriteMem(4 bytes @ 0xE0001054)  returns 0x04 (0001ms, 95677ms total)
T0EC8 4242:359 JLINK_WriteMem(0xE0001058, 0x0004 Bytes, ...) - Data: 00 00 00 00 -- CPU is running -- CPU_WriteMem(4 bytes @ 0xE0001058)  returns 0x04 (0001ms, 95678ms total)
T0EC8 4242:360 JLINK_Halt()  returns 0x00 (0006ms, 95684ms total)
T0EC8 4242:366 JLINK_WriteMem(0x400E0A04, 0x0004 Bytes, ...) - Data: 0B 01 00 5A -- CPU_WriteMem(4 bytes @ 0x400E0A04)  returns 0x04 (0002ms, 95686ms total)
T0EC8 4242:368 JLINK_ReadMem (0x400E0A08, 0x0004 Bytes, ...) -- CPU_ReadMem(4 bytes @ 0x400E0A08) - Data: 01 00 00 00  returns 0x00 (0001ms, 95687ms total)
T0EC8 4242:369 JLINK_WriteMem(0x400E0A04, 0x0004 Bytes, ...) - Data: 0C 02 00 5A -- CPU_WriteMem(4 bytes @ 0x400E0A04)  returns 0x04 (0000ms, 95687ms total)
T0EC8 4242:369 JLINK_ReadMem (0x400E0A08, 0x0004 Bytes, ...) -- CPU_ReadMem(4 bytes @ 0x400E0A08) - Data: 01 00 00 00  returns 0x00 (0002ms, 95689ms total)
T0EC8 4242:371 JLINK_Reset() -- CPU_ReadMem(16 bytes @ 0x20000000) -- CPU_WriteMem(16 bytes @ 0x20000000) -- CPU_ReadMem(4 bytes @ 0xE000EDFC) -- CPU_WriteMem(4 bytes @ 0xE000EDFC) -- CPU_ReadMem(4 bytes @ 0xE0001000) -- CPU_WriteMem(4 bytes @ 0xE000EDFC) -- CPU_WriteMem(16 bytes @ 0x20000000) -- CPU_WriteMem(4 bytes @ 0xE0002000) -- CPU_ReadMem(4 bytes @ 0xE000EDFC) -- CPU_ReadMem(4 bytes @ 0xE0001000) (0031ms, 95720ms total)
T0EC8 4242:405 JLINK_JTAG_GetDeviceID(DeviceIndex = 0)  returns 0x4BA00477 (0000ms, 95720ms total)
T0EC8 4242:405 JLINK_ReadMemU32(0x400E0740, 0x0001 Items, ...) -- CPU_ReadMem(4 bytes @ 0x400E0740) - Data: E0 0E A7 29  returns 0x01 (0002ms, 95722ms total)
T0EC8 4242:407 JLINK_ReadMemU32(0x400E0744, 0x0001 Items, ...) -- CPU_ReadMem(4 bytes @ 0x400E0744) - Data: 00 00 00 00  returns 0x01 (0000ms, 95722ms total)
T0EC8 4242:410 JLINK_BeginDownload(Flags = 0x00) (0000ms, 95722ms total)
T0EC8 4242:410 JLINK_WriteMem(0x00400000, 0x4000 Bytes, ...) - Data: 58 39 00 20 81 08 40 00 7D 08 40 00 7D 08 40 00 ...  returns 0x4000 (0001ms, 95723ms total)
T0EC8 4242:411 JLINK_WriteMem(0x00404000, 0x0448 Bytes, ...) - Data: 0E FB 16 11 1F FA 85 FC 42 EA 01 43 0C FB 06 F2 ...  returns 0x448 (0000ms, 95723ms total)
T0EC8 4242:412 JLINK_WriteMem(0x00404448, 0x0008 Bytes, ...) - Data: 4C F7 FF 7F 01 00 00 00  returns 0x08 (0000ms, 95723ms total)
T0EC8 4242:412 JLINK_WriteMem(0x00404450, 0x086C Bytes, ...) - Data: 00 09 3D 00 00 00 00 00 00 00 00 00 F4 02 00 20 ...  returns 0x86C (0001ms, 95724ms total)
T0114 4242:415 JLINK_IsHalted()  returns TRUE (0000ms, 95724ms total)
T0114 4242:415 JLINK_GetMOEs(...) -- CPU_ReadMem(4 bytes @ 0xE000ED30) -- CPU_WriteMem(4 bytes @ 0xE000ED30)  returns 0x01 (0001ms, 95725ms total)
T0114 4242:416 JLINK_ReadReg(R15 (PC)) -- -------------------------------------- -- Start of determining dirty areas in flash cache -- End of determining dirty areas -- Start of preparing flash programming -- Calculating RAM usage -- RAM usage = 3908 Bytes -- Preserving registers -- Preparing memory -- Determining CPU clock frequency -- CPU clock frequency: 4250 kHz -- CPU frequency = 4250 kHz -- Preparing target -- Downloading RAMCode -- Using alternate TurboMode RAMCode -- Checking target RAM
 -- Preparing RAMCode -- End of preparing flash programmingCPU is running at low speed (4250 kHz). -- CPU is running at 4250 kHz. -- Start of comparing flash -- Read back was estimated as fastest method -- Comparing range 0x400000 - 0x403FFF (32 Sectors, 16 KB), using multi-block CRC calculation -- CPU is running -- CPU_ReadMem(512 bytes @ 0x00400000) -- CPU is running -- CPU_ReadMem(512 bytes @ 0x00400200) -- CPU is running -- CPU_ReadMem(512 bytes @ 0x00400400) -- CPU is running
 -- CPU_ReadMem(512 bytes @ 0x00400600) -- CPU is running -- CPU_ReadMem(512 bytes @ 0x00400800) -- CPU is running -- CPU_ReadMem(512 bytes @ 0x00400A00) -- CPU is running -- CPU_ReadMem(512 bytes @ 0x00400C00) -- CPU is running -- CPU_ReadMem(512 bytes @ 0x00400E00) -- CPU is running -- CPU_ReadMem(512 bytes @ 0x00401000) -- CPU is running -- CPU_ReadMem(512 bytes @ 0x00401200) -- CPU is running -- CPU_ReadMem(512 bytes @ 0x00401400) -- CPU is running -- CPU_ReadMem(512 bytes @ 0x00401600)
 -- CPU is running -- CPU_ReadMem(512 bytes @ 0x00401800) -- CPU is running -- CPU_ReadMem(512 bytes @ 0x00401A00) -- CPU is running -- CPU_ReadMem(512 bytes @ 0x00401C00) -- CPU is running -- CPU_ReadMem(512 bytes @ 0x00401E00) -- CPU is running -- CPU_ReadMem(512 bytes @ 0x00402000) -- CPU is running -- CPU_ReadMem(512 bytes @ 0x00402200) -- CPU is running -- CPU_ReadMem(512 bytes @ 0x00402400) -- CPU is running -- CPU_ReadMem(512 bytes @ 0x00402600) -- CPU is running
 -- CPU_ReadMem(512 bytes @ 0x00402800) -- CPU is running -- CPU_ReadMem(512 bytes @ 0x00402A00) -- CPU is running -- CPU_ReadMem(512 bytes @ 0x00402C00) -- CPU is running -- CPU_ReadMem(512 bytes @ 0x00402E00) -- CPU is running -- CPU_ReadMem(512 bytes @ 0x00403000) -- CPU is running -- CPU_ReadMem(512 bytes @ 0x00403200) -- CPU is running -- CPU_ReadMem(512 bytes @ 0x00403400) -- CPU is running -- CPU_ReadMem(512 bytes @ 0x00403600) -- CPU is running -- CPU_ReadMem(512 bytes @ 0x00403800)
 -- CPU is running -- CPU_ReadMem(512 bytes @ 0x00403A00) -- CPU is running -- CPU_ReadMem(512 bytes @ 0x00403C00) -- CPU is running -- CPU_ReadMem(512 bytes @ 0x00403E00) -- CRC does not match for sectors 0-31 -- Comparing range 0x404000 - 0x404FFF (1 Sector, 4 KB), using multi-block CRC calculation -- CPU is running -- CPU_ReadMem(4096 bytes @ 0x00404000) -- CRC does not match for sector 0 -- End of comparing flash -- Start of erasing sectors -- End of erasing sectors -- Start of flash programming
 -- Programming range 0x00400000 - 0x00403FFF (032 Sectors, 16 KB) -- Programming range 0x00404000 - 0x00404FFF (001 Sector, 4 KB) -- End of flash programming -- Flash programming performed for 2 ranges (20480 bytes) -- 0x400000 - 0x403FFF (032 Sectors, 16 KB) -- 0x404000 - 0x404FFF (001 Sector, 4 KB) -- Start of verifying flash -- Checksum calculation was estimated as fastest method -- Checksum calculation was estimated as fastest method -- End of verifying flash -- Start of restoring -- Restore RAMCode
 -- Restore content of target memory -- Restore target -- Restore memory -- Restore content of registers -- End of restoring -- Total time needed: 0.570s (Prepare: 0.123s, Compare: 0.177s, Erase: 0.000s, Program: 0.248s, Verify: 0.013s, Restore: 0.007s)  returns 0xFFFFFFFE (0578ms, 96303ms total)
T1810 4243:102 JLINK_Halt()  returns 0x00 (0001ms, 96304ms total)
T1810 4243:103 JLINK_ReadReg(R15 (PC))  returns 0xFFFFFFFE (0000ms, 96304ms total)
T1810 4243:103 JLINK_ReadReg(R13 (SP))  returns 0xFFFFFFFC (0000ms, 96304ms total)
T0114 4243:195 JLINK_IsHalted()  returns TRUE (0000ms, 96304ms total)
T1810 4243:258 JLINK_ReadReg(R0)  returns 0x400E1400 (0000ms, 96304ms total)
T1810 4243:258 JLINK_ReadReg(R1)  returns 0x40C00000 (0000ms, 96304ms total)
T1810 4243:258 JLINK_ReadReg(R2)  returns 0xA5000005 (0000ms, 96304ms total)
T1810 4243:258 JLINK_ReadReg(R3)  returns 0x40001A1A (0000ms, 96304ms total)
T1810 4243:258 JLINK_ReadReg(R4)  returns 0x400E0600 (0000ms, 96304ms total)
T1810 4243:258 JLINK_ReadReg(R5)  returns 0x0040083D (0000ms, 96304ms total)
T1810 4243:258 JLINK_ReadReg(R6)  returns 0x00400B29 (0000ms, 96304ms total)
T1810 4243:258 JLINK_ReadReg(R7)  returns 0x20000948 (0000ms, 96304ms total)
T1810 4243:258 JLINK_ReadReg(R8)  returns 0x07270E00 (0000ms, 96304ms total)
T1810 4243:258 JLINK_ReadReg(R9)  returns 0x20000008 (0000ms, 96304ms total)
T1810 4243:258 JLINK_ReadReg(R10)  returns 0x004040AC (0000ms, 96304ms total)
T1810 4243:258 JLINK_ReadReg(R11)  returns 0x7FFFFC00 (0000ms, 96304ms total)
T1810 4243:258 JLINK_ReadReg(R12)  returns 0x01010101 (0000ms, 96304ms total)
T1810 4243:258 JLINK_ReadReg(R13 (SP))  returns 0xFFFFFFFC (0000ms, 96304ms total)
T1810 4243:258 JLINK_ReadReg(R14)  returns 0xFFFFFFFF (0000ms, 96304ms total)
T1810 4243:258 JLINK_ReadReg(R15 (PC))  returns 0xFFFFFFFE (0000ms, 96304ms total)
T1810 4243:258 JLINK_ReadReg(XPSR)  returns 0x01000000 (0000ms, 96304ms total)
T1810 4243:258 JLINK_ReadReg(MSP)  returns 0xFFFFFFFC (0000ms, 96304ms total)
T1810 4243:258 JLINK_ReadReg(PSP)  returns 0x7050AD78 (0000ms, 96304ms total)
T1810 4243:258 JLINK_ReadReg(PRIMASK)  returns 0x00000000 (0000ms, 96304ms total)
T1810 4243:258 JLINK_ReadReg(BASEPRI)  returns 0x00000000 (0000ms, 96304ms total)
T1810 4243:258 JLINK_ReadReg(FAULTMASK)  returns 0x00000000 (0000ms, 96304ms total)
T1810 4243:258 JLINK_ReadReg(CONTROL)  returns 0x00000000 (0000ms, 96304ms total)
T1810 4243:293 JLINK_EndDownload()  returns 0x00 (0000ms, 96304ms total)
T1810 4243:293 JLINK_Reset() -- CPU_ReadMem(16 bytes @ 0x20000000) -- CPU_WriteMem(16 bytes @ 0x20000000) -- CPU_ReadMem(4 bytes @ 0xE000EDFC) -- CPU_WriteMem(4 bytes @ 0xE000EDFC) -- CPU_ReadMem(4 bytes @ 0xE0001000) -- CPU_WriteMem(4 bytes @ 0xE000EDFC) -- CPU_WriteMem(16 bytes @ 0x20000000) -- CPU_WriteMem(4 bytes @ 0xE0002000) -- CPU_ReadMem(4 bytes @ 0xE000EDFC) -- CPU_ReadMem(4 bytes @ 0xE0001000) (0035ms, 96339ms total)
T0114 4243:328 JLINK_IsHalted()  returns TRUE (0000ms, 96339ms total)
T0114 4243:328 JLINK_GetMOEs(...) -- CPU_ReadMem(4 bytes @ 0xE000ED30) -- CPU_WriteMem(4 bytes @ 0xE000ED30)  returns 0x01 (0003ms, 96342ms total)
T0114 4243:331 JLINK_ReadReg(R15 (PC))  returns 0x00400880 (0000ms, 96342ms total)
T1810 4243:339 JLINK_ReadReg(R15 (PC))  returns 0x00400880 (0000ms, 96342ms total)
T1810 4243:339 JLINK_ReadReg(R13 (SP))  returns 0x20003958 (0000ms, 96342ms total)
T1810 4243:353 JLINK_ReadMemHW(0x00400880, 0x0004 Bytes, ...) -- CPU_ReadMem(4 bytes @ 0x00400880) - Data: 08 B5 20 4B  returns 0x00 (0001ms, 96343ms total)
T1810 4243:367 JLINK_ReadMemHW(0x00400DA6, 0x0002 Bytes, ...) -- CPU_ReadMem(2 bytes @ 0x00400DA6) - Data: 0B 48  returns 0x00 (0001ms, 96344ms total)
T1810 4243:368 JLINK_ReadMemHW(0x00400DA8, 0x0002 Bytes, ...) -- CPU_ReadMem(2 bytes @ 0x00400DA8) - Data: 0B 4B  returns 0x00 (0002ms, 96346ms total)
T1810 4243:370 JLINK_ReadMemHW(0x00400DC8, 0x0002 Bytes, ...) -- CPU_ReadMem(2 bytes @ 0x00400DC8) - Data: 02 48  returns 0x00 (0002ms, 96348ms total)
T0EC8 4243:373 JLINK_GetNumBPUnits(Type = 0xFFFFFF02)  returns 0x06 (0000ms, 96348ms total)
T0EC8 4243:373 JLINK_SetBPEx(Addr = 0x00400DC8, Type = 0xFFFFFFF2)  returns 0x00000001 (0000ms, 96348ms total)
T0EC8 4243:373 JLINK_GetBPInfo(BPHandle = 1)  returns 0x00 (0000ms, 96348ms total)
T1810 4243:406 JLINK_ReadMemHW(0x00400DE4, 0x0001 Bytes, ...) -- CPU_ReadMem(1 bytes @ 0x00400DE4) - Data: 2D  returns 0x00 (0002ms, 96350ms total)
T1810 4243:432 JLINK_ReadReg(R15 (PC))  returns 0x00400880 (0000ms, 96350ms total)
T1810 4243:432 JLINK_SetBPEx(Addr = 0x00400DE4, Type = 0xFFFFFF02)  returns 0x00000002 (0000ms, 96350ms total)
T1810 4243:432 JLINK_GetBPInfo(BPHandle = 2)  returns 0x00 (0000ms, 96350ms total)
T1810 4243:432 JLINK_Go() -- CPU_ReadMem(4 bytes @ 0xE0001000) -- CPU_WriteMem(4 bytes @ 0xE0002008) -- CPU_WriteMem(4 bytes @ 0xE000200C) -- CPU_WriteMem(4 bytes @ 0xE0002010) -- CPU_WriteMem(4 bytes @ 0xE0002014) -- CPU_WriteMem(4 bytes @ 0xE0002018) -- CPU_WriteMem(4 bytes @ 0xE000201C) -- CPU_WriteMem(4 bytes @ 0xE0001004) (0005ms, 96355ms total)
T0114 4243:437 JLINK_IsHalted()  returns FALSE (0002ms, 96357ms total)
T0114 4243:460 JLINK_IsHalted()  returns TRUE (0004ms, 96359ms total)
T0114 4243:464 JLINK_GetMOEs(...) -- CPU_ReadMem(4 bytes @ 0xE000ED30) -- CPU_WriteMem(4 bytes @ 0xE000ED30)  returns 0x01 (0002ms, 96357ms total)
T0114 4243:466 JLINK_ReadReg(R15 (PC))  returns 0x00400DE4 (0000ms, 96357ms total)
T0114 4243:466 JLINK_GetBPInfo(BPHandle = 2)  returns 0x00 (0000ms, 96357ms total)
T0114 4243:466 JLINK_ClrBPEx(BPHandle = 0x00000002)  returns 0x00 (0000ms, 96357ms total)
T1810 4243:471 JLINK_ReadReg(R15 (PC))  returns 0x00400DE4 (0000ms, 96357ms total)
T1810 4243:471 JLINK_ReadReg(R13 (SP))  returns 0x20003950 (0000ms, 96357ms total)
T1810 4243:471 JLINK_ReadMemHW(0x00400DE4, 0x0004 Bytes, ...) -- CPU_ReadMem(4 bytes @ 0x00400DE4) - Data: 2D E9 F0 43  returns 0x00 (0000ms, 96357ms total)
T1810 4243:504 JLINK_ReadReg(R15 (PC))  returns 0x00400DE4 (0000ms, 96357ms total)
T1810 4243:504 JLINK_Go() -- CPU_ReadMem(4 bytes @ 0xE0001000) -- CPU_WriteMem(4 bytes @ 0xE000200C) (0003ms, 96360ms total)
T0114 4243:507 JLINK_IsHalted()  returns FALSE (0001ms, 96361ms total)
T0114 4243:548 JLINK_IsHalted()  returns TRUE (0004ms, 96364ms total)
T0114 4243:552 JLINK_GetMOEs(...) -- CPU_ReadMem(4 bytes @ 0xE000ED30) -- CPU_WriteMem(4 bytes @ 0xE000ED30)  returns 0x01 (0002ms, 96362ms total)
T0114 4243:554 JLINK_ReadReg(R15 (PC))  returns 0x00400DC8 (0000ms, 96362ms total)
T1810 4243:558 JLINK_ReadReg(R15 (PC))  returns 0x00400DC8 (0000ms, 96362ms total)
T1810 4243:558 JLINK_ReadReg(R13 (SP))  returns 0x20003848 (0000ms, 96362ms total)
T1810 4243:558 JLINK_ReadMemHW(0x00400DC8, 0x0004 Bytes, ...) -- CPU_ReadMem(4 bytes @ 0x00400DC8) - Data: 02 48 40 F6  returns 0x00 (0000ms, 96362ms total)
T1810 4243:571 JLINK_ReadMem (0x2000384C, 0x0004 Bytes, ...) -- CPU_ReadMem(64 bytes @ 0x20003840) -- Updating C cache (64 bytes @ 0x20003840) -- Read from C cache (4 bytes @ 0x2000384C) - Data: F9 FF FF FF  returns 0x00 (0002ms, 96364ms total)
T1810 4243:573 JLINK_ReadMem (0x2000384C, 0x0004 Bytes, ...) -- Read from C cache (4 bytes @ 0x2000384C) - Data: F9 FF FF FF  returns 0x00 (0000ms, 96364ms total)
T1810 4243:573 JLINK_ReadMem (0x2000386C, 0x0004 Bytes, ...) -- Read from C cache (4 bytes @ 0x2000386C) - Data: 00 14 00 61  returns 0x00 (0000ms, 96364ms total)
T1810 4243:573 JLINK_ReadMem (0x20003868, 0x0004 Bytes, ...) -- Read from C cache (4 bytes @ 0x20003868) - Data: 36 08 40 00  returns 0x00 (0000ms, 96364ms total)
T1810 4243:582 JLINK_ReadMemHW(0x00400836, 0x0004 Bytes, ...) -- CPU_ReadMem(4 bytes @ 0x00400836) - Data: 00 20 01 20  returns 0x00 (0002ms, 96366ms total)
T1810 4243:584 JLINK_ReadMem (0x20003864, 0x0004 Bytes, ...) -- Read from C cache (4 bytes @ 0x20003864) - Data: CD 0B 40 00  returns 0x00 (0000ms, 96366ms total)
T1810 4243:584 JLINK_ReadMem (0x20003864, 0x0004 Bytes, ...) -- Read from C cache (4 bytes @ 0x20003864) - Data: CD 0B 40 00  returns 0x00 (0000ms, 96366ms total)
T1810 4243:584 JLINK_ReadMemHW(0x00400BCC, 0x0004 Bytes, ...) -- CPU_ReadMem(4 bytes @ 0x00400BCC) - Data: 00 28 FA D1  returns 0x00 (0001ms, 96367ms total)
T1810 4243:587 JLINK_ReadMem (0x2000387C, 0x0004 Bytes, ...) -- Read from C cache (4 bytes @ 0x2000387C) - Data: ED 01 40 00  returns 0x00 (0000ms, 96367ms total)
T1810 4243:594 JLINK_ReadMem (0x2000387C, 0x0004 Bytes, ...) -- Read from C cache (4 bytes @ 0x2000387C) - Data: ED 01 40 00  returns 0x00 (0000ms, 96367ms total)
T1810 4243:594 JLINK_ReadMem (0x20003864, 0x0004 Bytes, ...) -- Read from C cache (4 bytes @ 0x20003864) - Data: CD 0B 40 00  returns 0x00 (0000ms, 96367ms total)
T1810 4243:596 JLINK_ReadMem (0x2000387C, 0x0004 Bytes, ...) -- Read from C cache (4 bytes @ 0x2000387C) - Data: ED 01 40 00  returns 0x00 (0000ms, 96367ms total)
T1810 4243:596 JLINK_ReadMemHW(0x004001EC, 0x0004 Bytes, ...) -- CPU_ReadMem(4 bytes @ 0x004001EC) - Data: 00 28 0A DB  returns 0x00 (0001ms, 96368ms total)
T1810 4243:598 JLINK_ReadMem (0x20003894, 0x0004 Bytes, ...) -- CPU_ReadMem(64 bytes @ 0x20003880) -- Updating C cache (64 bytes @ 0x20003880) -- Read from C cache (4 bytes @ 0x20003894) - Data: 05 39 40 00  returns 0x00 (0001ms, 96369ms total)
T1810 4243:599 JLINK_ReadMem (0x20003894, 0x0004 Bytes, ...) -- Read from C cache (4 bytes @ 0x20003894) - Data: 05 39 40 00  returns 0x00 (0000ms, 96369ms total)
T1810 4243:600 JLINK_ReadMem (0x2000387C, 0x0004 Bytes, ...) -- Read from C cache (4 bytes @ 0x2000387C) - Data: ED 01 40 00  returns 0x00 (0000ms, 96369ms total)
T1810 4243:600 JLINK_ReadMem (0x20003894, 0x0004 Bytes, ...) -- Read from C cache (4 bytes @ 0x20003894) - Data: 05 39 40 00  returns 0x00 (0000ms, 96369ms total)
T1810 4243:600 JLINK_ReadMemHW(0x00403904, 0x0004 Bytes, ...) -- CPU_ReadMem(4 bytes @ 0x00403904) - Data: 43 1C 00 D0  returns 0x00 (0001ms, 96370ms total)
T1810 4243:601 JLINK_ReadMem (0x200038A4, 0x0004 Bytes, ...) -- Read from C cache (4 bytes @ 0x200038A4) - Data: 67 27 40 00  returns 0x00 (0000ms, 96370ms total)
T1810 4243:601 JLINK_ReadMem (0x200038A4, 0x0004 Bytes, ...) -- Read from C cache (4 bytes @ 0x200038A4) - Data: 67 27 40 00  returns 0x00 (0000ms, 96370ms total)
T1810 4243:601 JLINK_ReadMem (0x20003894, 0x0004 Bytes, ...) -- Read from C cache (4 bytes @ 0x20003894) - Data: 05 39 40 00  returns 0x00 (0000ms, 96370ms total)
T1810 4243:601 JLINK_ReadMem (0x200038A4, 0x0004 Bytes, ...) -- Read from C cache (4 bytes @ 0x200038A4) - Data: 67 27 40 00  returns 0x00 (0000ms, 96370ms total)
T1810 4243:603 JLINK_ReadMemHW(0x00402766, 0x0004 Bytes, ...) -- CPU_ReadMem(4 bytes @ 0x00402766) - Data: 00 28 73 DD  returns 0x00 (0001ms, 96371ms total)
T1810 4243:605 JLINK_ReadMem (0x200038D4, 0x0004 Bytes, ...) -- CPU_ReadMem(64 bytes @ 0x200038C0) -- Updating C cache (64 bytes @ 0x200038C0) -- Read from C cache (4 bytes @ 0x200038D4) - Data: D3 11 40 00  returns 0x00 (0001ms, 96372ms total)
T1810 4243:607 JLINK_ReadMem (0x200038D4, 0x0004 Bytes, ...) -- Read from C cache (4 bytes @ 0x200038D4) - Data: D3 11 40 00  returns 0x00 (0001ms, 96374ms total)
T1810 4243:608 JLINK_ReadMem (0x200038A4, 0x0004 Bytes, ...) -- Read from C cache (4 bytes @ 0x200038A4) - Data: 67 27 40 00  returns 0x00 (0000ms, 96374ms total)
T1810 4243:609 JLINK_ReadMem (0x200038D4, 0x0004 Bytes, ...) -- Read from C cache (4 bytes @ 0x200038D4) - Data: D3 11 40 00  returns 0x00 (0000ms, 96374ms total)
T1810 4243:610 JLINK_ReadMemHW(0x004011D2, 0x0004 Bytes, ...) -- CPU_ReadMem(4 bytes @ 0x004011D2) - Data: 00 28 14 BF  returns 0x00 (0001ms, 96375ms total)
T1810 4243:612 JLINK_ReadMem (0x2000390C, 0x0004 Bytes, ...) -- CPU_ReadMem(64 bytes @ 0x20003900) -- Updating C cache (64 bytes @ 0x20003900) -- Read from C cache (4 bytes @ 0x2000390C) - Data: 31 0B 40 00  returns 0x00 (0002ms, 96377ms total)
T1810 4243:615 JLINK_ReadMem (0x2000390C, 0x0004 Bytes, ...) -- Read from C cache (4 bytes @ 0x2000390C) - Data: 31 0B 40 00  returns 0x00 (0000ms, 96377ms total)
T1810 4243:616 JLINK_ReadMem (0x200038D4, 0x0004 Bytes, ...) -- Read from C cache (4 bytes @ 0x200038D4) - Data: D3 11 40 00  returns 0x00 (0000ms, 96377ms total)
T1810 4243:617 JLINK_ReadMem (0x2000390C, 0x0004 Bytes, ...) -- Read from C cache (4 bytes @ 0x2000390C) - Data: 31 0B 40 00  returns 0x00 (0000ms, 96377ms total)
T1810 4243:618 JLINK_ReadMemHW(0x00400B30, 0x0004 Bytes, ...) -- CPU_ReadMem(4 bytes @ 0x00400B30) - Data: 13 48 C8 21  returns 0x00 (0001ms, 96378ms total)
T1810 4243:620 JLINK_ReadMem (0x2000391C, 0x0004 Bytes, ...) -- Read from C cache (4 bytes @ 0x2000391C) - Data: A7 0E 40 00  returns 0x00 (0000ms, 96378ms total)
T1810 4243:621 JLINK_ReadMem (0x2000391C, 0x0004 Bytes, ...) -- Read from C cache (4 bytes @ 0x2000391C) - Data: A7 0E 40 00  returns 0x00 (0000ms, 96378ms total)
T1810 4243:622 JLINK_ReadMem (0x2000390C, 0x0004 Bytes, ...) -- Read from C cache (4 bytes @ 0x2000390C) - Data: 31 0B 40 00  returns 0x00 (0000ms, 96378ms total)
T1810 4243:622 JLINK_ReadMem (0x2000391C, 0x0004 Bytes, ...) -- Read from C cache (4 bytes @ 0x2000391C) - Data: A7 0E 40 00  returns 0x00 (0000ms, 96378ms total)
T1810 4243:623 JLINK_ReadMemHW(0x00400EA6, 0x0004 Bytes, ...) -- CPU_ReadMem(4 bytes @ 0x00400EA6) - Data: 65 4D 04 F5  returns 0x00 (0002ms, 96380ms total)
T1810 4243:637 JLINK_ReadMem (0x20003850, 0x0004 Bytes, ...) -- Read from C cache (4 bytes @ 0x20003850) - Data: 00 06 0E 40  returns 0x00 (0000ms, 96380ms total)
T1810 4243:638 JLINK_ReadMem (0x20003854, 0x0004 Bytes, ...) -- Read from C cache (4 bytes @ 0x20003854) - Data: 3D 00 00 00  returns 0x00 (0001ms, 96381ms total)
